
> players-ink-placeholder-minter@1.0.0 start
> node mint_playersink_placeholders.js

ğŸš€ Players Ink Authentication Placeholder Minter
==================================================
ğŸ” Validating configuration...
âœ… Pinata authentication successful
âœ… Configuration validated
âœ… Output directories created
ğŸ“Š Resuming from previous session:
   - Completed: 10
   - Pending: 12759

ğŸ–¼ï¸  Uploading placeholder image to IPFS...
âœ… Using existing image: ipfs://QmRT8DUSsFLZrrhgyhcSwh8988xx1kKCuR5SLpDS2hWkDN

ğŸ“ Generating metadata...

ğŸ“¦ Processing batch 1-100...
âœ… Batch 1-100 metadata uploaded

ğŸ“¦ Processing batch 101-200...
âœ… Batch 101-200 metadata uploaded

ğŸ“¦ Processing batch 201-300...
âœ… Batch 201-300 metadata uploaded

ğŸ“¦ Processing batch 301-400...
âœ… Batch 301-400 metadata uploaded

ğŸ“¦ Processing batch 401-500...
âœ… Batch 401-500 metadata uploaded

ğŸ“¦ Processing batch 501-600...
âœ… Batch 501-600 metadata uploaded

ğŸ“¦ Processing batch 601-700...
âœ… Batch 601-700 metadata uploaded

ğŸ“¦ Processing batch 701-800...
âœ… Batch 701-800 metadata uploaded

ğŸ“¦ Processing batch 801-900...
âœ… Batch 801-900 metadata uploaded

ğŸ“¦ Processing batch 901-1000...
âœ… Batch 901-1000 metadata uploaded

ğŸ”— Connecting to blockchain...
âœ… Connected to network: unknown (Chain ID: 28530)
âœ… Wallet address: 0xE2A506B43dF9c4e3B3c284F8cc18cF47Ac266929
âœ… Wallet balance: 999999717.414734135264199788 BTIC
âœ… Contract owner: 0xE2A506B43dF9c4e3B3c284F8cc18cF47Ac266929
âš ï¸  Contract does not have pause functionality

ğŸ¨ Starting minting process...
ğŸ¨ Minting token 11 (000011)...
   TX: 0x0e5c081027730527512d2252df7819bafce5f0591208f822eb22eb01107545eb
âœ… Token 11 minted successfully
ğŸ¨ Minting token 12 (000012)...
   TX: 0x785596f1c09a4543ec83020dbfc86b46c76c6f3b03b153878651ba8c31460ba6
âœ… Token 12 minted successfully
ğŸ¨ Minting token 13 (000013)...
   TX: 0x9694c585c26401f7f1e6e328c8322081f0300d2481b5ae5045d6dea8430b9bce
âœ… Token 13 minted successfully
ğŸ¨ Minting token 14 (000014)...
   TX: 0xdc88924dad615337206916d87859bda408ae0de2f17bb88430c74e305a622409
âœ… Token 14 minted successfully
ğŸ¨ Minting token 15 (000015)...
   TX: 0x07b128d216b01f6c88e68c3fad054a6025f44b04401e99b7c9ccddce3b6acdbe
âœ… Token 15 minted successfully
ğŸ¨ Minting token 16 (000016)...
   TX: 0x552ccdb45b1515c6254a943709c87811781e31d5010ff0c25d34f04ab38f0531
âœ… Token 16 minted successfully
ğŸ¨ Minting token 17 (000017)...
   TX: 0xc3daadb8fd64d939dede2e1357ac534112f85ed1503e27bce713f221642b319b
âœ… Token 17 minted successfully
ğŸ¨ Minting token 18 (000018)...
   TX: 0x9a561cdccd09b7b18e382948ad772b3840db0989929bdf8c4ce2ed79c70fe20d
âœ… Token 18 minted successfully
ğŸ¨ Minting token 19 (000019)...
   TX: 0xdebc34052270272e05a0d66f20857162954793d0ab223c400a67788addca056e
âœ… Token 19 minted successfully
ğŸ¨ Minting token 20 (000020)...
   TX: 0xa21edec257db7e38d3c3f1758037bce325c224c8f5da5bc9e6499d33eb2181f1
âœ… Token 20 minted successfully
ğŸ“Š Progress: 20/1000 (2.0%)
ğŸ¨ Minting token 21 (000021)...
   TX: 0x86ef2811dd828ff9dde4445fa88ad13faa8be9a1fcfc6d9542c4df692110390b
âœ… Token 21 minted successfully
ğŸ¨ Minting token 22 (000022)...
   TX: 0x4597674ec265d0adf5e9f4c801a36f3b27aa4cad278fe90b2d4bb61b0db45840
âœ… Token 22 minted successfully
ğŸ¨ Minting token 23 (000023)...
   TX: 0x11fc7169bd116db9fed399d550d34fc943895b16cbf525abc969bf41df921d6b
âœ… Token 23 minted successfully
ğŸ¨ Minting token 24 (000024)...
   TX: 0xc1d6e11d45d1a52fc7b5bccfb66fd6eb861ecad543045d09d41074e93afecfea
âœ… Token 24 minted successfully
ğŸ¨ Minting token 25 (000025)...
   TX: 0xabb7291bc09372210ef2b4d510c1fca4086c03f28bb1c8f6273c77e6586b53fb
âœ… Token 25 minted successfully
ğŸ¨ Minting token 26 (000026)...
   TX: 0x09aee2c9cf664c3442550aacc883057f8dc43358159ede8ac609d52028807529
âœ… Token 26 minted successfully
ğŸ¨ Minting token 27 (000027)...
   TX: 0xbed3e7d16d42863ec3964df8199c0439be96afc0594af1fd4fddbc6c124bf73b
âœ… Token 27 minted successfully
ğŸ¨ Minting token 28 (000028)...
   TX: 0xf6ea6b00a975a7ee7dbb1c1c768a927c740bd1ced0e5715b65d5d7d18d1e2781
âœ… Token 28 minted successfully
ğŸ¨ Minting token 29 (000029)...
   TX: 0x6eb4081f7f994069bb1f3f114fb19a27c6c9daee4bd899318fab4b72cd99d989
âœ… Token 29 minted successfully
ğŸ¨ Minting token 30 (000030)...
   TX: 0x42d709355718362c4e7911dfeb88cd97f9a4704089b60fdd2f9d8c44a145066d
âœ… Token 30 minted successfully
ğŸ“Š Progress: 30/1000 (3.0%)
ğŸ¨ Minting token 31 (000031)...
   TX: 0x45530ef532c365cdb1b928c4151d336cc37d1ab0cf05a33c9438343a095cf82c
âœ… Token 31 minted successfully
ğŸ¨ Minting token 32 (000032)...
   TX: 0x7b18edd7b0a00e6f1af46c9c0a81fb6efeeaef9fd816db93af67611b5f5db217
âœ… Token 32 minted successfully
ğŸ¨ Minting token 33 (000033)...
   TX: 0xa1a691ee012544511bb7f2867659c4d5e994b3e04efd93d64653545ed231176c
âœ… Token 33 minted successfully
ğŸ¨ Minting token 34 (000034)...
   TX: 0x070b675de3ef3ab5470cb907342af1dbe3d176074f1417c86e921fe005a6a0d0
âœ… Token 34 minted successfully
ğŸ¨ Minting token 35 (000035)...
   TX: 0x7cdd9b646c646fb166377c6798d7ff3c642e3d4262996cb082ff20894c66c2f1
âœ… Token 35 minted successfully
ğŸ¨ Minting token 36 (000036)...
   TX: 0x8dcd732fa5efbb537eb3654ad19ac7b507002c1e425970f71a01bab99dd11bc4
âœ… Token 36 minted successfully
ğŸ¨ Minting token 37 (000037)...
   TX: 0x62f9bfe2f812a5bad4fa8b00a122d5ff465bb191294910baa7e2e8e63f067fd6
âœ… Token 37 minted successfully
ğŸ¨ Minting token 38 (000038)...
   TX: 0xd328f3ae89d283a870a973e12922afa3dcfb204bf6ff8427685b30e244d7d025
âœ… Token 38 minted successfully
ğŸ¨ Minting token 39 (000039)...
   TX: 0x33156d6a34226694c0f356b05ed3657e2a47e7e286f95d73d9a993ec772607af
âœ… Token 39 minted successfully
ğŸ¨ Minting token 40 (000040)...
   TX: 0x52233b1b00af94608f37b4e8bbe0ceef7963fbe71df13eda5c562f0e991e38cd
âœ… Token 40 minted successfully
ğŸ“Š Progress: 40/1000 (4.0%)
ğŸ¨ Minting token 41 (000041)...
   TX: 0x42457b19fa547f6cae1d0f9e790bc5e92ef47e0844ffad52eaddefcac0830cbd
âœ… Token 41 minted successfully
ğŸ¨ Minting token 42 (000042)...
   TX: 0xf9e28bd8d819357cee01b2b30c3ac989251456c7b83b21bde31cf05df304c576
âœ… Token 42 minted successfully
ğŸ¨ Minting token 43 (000043)...
   TX: 0x62ed75e634b564a9490c840dbd7d2f0b744dbb5e5aa186d556ee823cd8458f6c
âœ… Token 43 minted successfully
ğŸ¨ Minting token 44 (000044)...
   TX: 0x77293b7f92f41eed040e83839f23b6e9e54f8474944ade4a88b703d60a41e40f
âœ… Token 44 minted successfully
ğŸ¨ Minting token 45 (000045)...
   TX: 0x982db52e74218e26faddec1a47beed70cd101309b4646ff67ba9fae40d797c41
âœ… Token 45 minted successfully
ğŸ¨ Minting token 46 (000046)...
   TX: 0x7e74c3a59e8b6d26f92d0f4e359bbe9d4bf06d743b76475d0491198adbf8af76
âœ… Token 46 minted successfully
ğŸ¨ Minting token 47 (000047)...
   TX: 0xef0b757943379abf934716765284d55a67227375bcb0abc290fc10f63b03d103
âœ… Token 47 minted successfully
ğŸ¨ Minting token 48 (000048)...
   TX: 0x368cebaa4764951d91c802501d61ae7273ce460b1e7a6910eb1753a6575945b4
âœ… Token 48 minted successfully
ğŸ¨ Minting token 49 (000049)...
   TX: 0x62ed334e231e25bdc7ad9d97e9ff9e4ca52bb9a5ebb191c5ced1c623b1ab45f3
âœ… Token 49 minted successfully
ğŸ¨ Minting token 50 (000050)...
   TX: 0xfb92b987d947b720c5dc239157c568e649b8482c93158363f3bc95aba6e970e2
âœ… Token 50 minted successfully
ğŸ“Š Progress: 50/1000 (5.0%)
ğŸ¨ Minting token 51 (000051)...
   TX: 0xf4032edb0a42c3ffc452f41afcf42b52e0c9c1cae01f49753c1dd743a88bd681
âœ… Token 51 minted successfully
ğŸ¨ Minting token 52 (000052)...
   TX: 0xe46ed9fb5c289c9ddb2f86de138257aa39e125c30b18394a12484081ebe5543b
âœ… Token 52 minted successfully
ğŸ¨ Minting token 53 (000053)...
   TX: 0x14e86693401fd5c5e05be932b455eb66a0c82ff227c9909a8cd6705d593ba944
âœ… Token 53 minted successfully
ğŸ¨ Minting token 54 (000054)...
   TX: 0x87b98d52fcfc8519e66b4659190ba324f8fd443eba9e7d8f1df45aeb440def45
âœ… Token 54 minted successfully
ğŸ¨ Minting token 55 (000055)...
   TX: 0xad9d34b8c4b4b451a82cd75c1c70ebe9c4d167a8b005adbd264afe6b7aa7bc8f
âœ… Token 55 minted successfully
ğŸ¨ Minting token 56 (000056)...
   TX: 0x26794bfad0b53832191622048ccc5bb775a0e8747ddc93d717c46594067c7a86
âœ… Token 56 minted successfully
ğŸ¨ Minting token 57 (000057)...
   TX: 0xe033b1855f479734ec0e7ea65d81f894f26f441f717c66d2244540e7a2e4c255
âœ… Token 57 minted successfully
ğŸ¨ Minting token 58 (000058)...
   TX: 0x0a6b3f226f47f5f4fea0c71b00ea22ee4f6609756fce73c2d122f416bb43111d
âœ… Token 58 minted successfully
ğŸ¨ Minting token 59 (000059)...
   TX: 0x0e7c5c35c9076c09a57fd943ebc9c37f72673b4753a064357e9baa423fd94893
âœ… Token 59 minted successfully
ğŸ¨ Minting token 60 (000060)...
   TX: 0x9e0ed5bab3621ad9b44a4242433ac2673e563769eac654e1e108ad59457c4f44
âœ… Token 60 minted successfully
ğŸ“Š Progress: 60/1000 (6.0%)
ğŸ¨ Minting token 61 (000061)...
   TX: 0xfc36450bd87643af4e74cd9d89dd00ddabe2ad73eef3a65e1a65fcd9decda332
âœ… Token 61 minted successfully
ğŸ¨ Minting token 62 (000062)...
   TX: 0x82540092c74f25a19a409f45d39a9d1a4cd31600409411d3bcb75ec95ce7a8bc
âœ… Token 62 minted successfully
ğŸ¨ Minting token 63 (000063)...
   TX: 0x65a7d1aac2d81c1d90a761e757aecde5a502a7a27bccd64f28fac89a9526d3ee
âœ… Token 63 minted successfully
ğŸ¨ Minting token 64 (000064)...
   TX: 0xa79c4919eb8eaf72ca4ea8068a8d1fc3e46a675e9eae05197ab9578e4add8731
âœ… Token 64 minted successfully
ğŸ¨ Minting token 65 (000065)...
   TX: 0x0a873f0602d5a2dcf47cb22a9ca239edddc99da996d6854cf30089f21c7705f7
âœ… Token 65 minted successfully
ğŸ¨ Minting token 66 (000066)...
   TX: 0x63e8229a053ca35b05f4a880fb35c68a42721763aa5eb2722c2b54b1f5ce45a9
âœ… Token 66 minted successfully
ğŸ¨ Minting token 67 (000067)...
   TX: 0x8021db9b77020e102daa1f544df4516e1ede2c4974641ba066fff1588cd5a32f
âœ… Token 67 minted successfully
ğŸ¨ Minting token 68 (000068)...
   TX: 0x72ee5b8839d64c3ab0dd94c5f3be58d6bc6cad8337613c3ab3f8c9531615ba66
âœ… Token 68 minted successfully
ğŸ¨ Minting token 69 (000069)...
   TX: 0x77c32d38fba5b04346ccc9d195efea42603726174fd206a3e4068598eefdda78
âœ… Token 69 minted successfully
ğŸ¨ Minting token 70 (000070)...
   TX: 0x32c8aa3d3a43914535ec04522c18b40bb91f62458615ca6ba59defd9c1e04cc1
âœ… Token 70 minted successfully
ğŸ“Š Progress: 70/1000 (7.0%)
ğŸ¨ Minting token 71 (000071)...
   TX: 0x61f64a1a543a2bd2d4819bd34864f1b61a3ef963beb22c1b92ae51b84a1c1d94
âœ… Token 71 minted successfully
ğŸ¨ Minting token 72 (000072)...
   TX: 0x5910e0e4ec79f7b23b772812674f881278d7e070ac09d811e23cb2848b03abc5
âœ… Token 72 minted successfully
ğŸ¨ Minting token 73 (000073)...
   TX: 0x187f57ba03c7e9330a198bb6d2e7701a21c221ac29328d2f145f7fa2696eb3c8
âœ… Token 73 minted successfully
ğŸ¨ Minting token 74 (000074)...
   TX: 0xba8e2db86ff9ae7171e2782243e945b913cc863daad88105e591460a1f1c2023
âœ… Token 74 minted successfully
ğŸ¨ Minting token 75 (000075)...
   TX: 0x6dc13edfb2be5eae168a411d8085e520a99929b4cf6099e84fa67b7b091efbef
âœ… Token 75 minted successfully
ğŸ¨ Minting token 76 (000076)...
   TX: 0x598bb2257c68be54b2c6698ed049b43b0bb437f744ceabf18080bf796bf23c07
âœ… Token 76 minted successfully
ğŸ¨ Minting token 77 (000077)...
   TX: 0xdbd2fc911f15778759fffc07deb80a2913093c7cf8a1f09c776902a0dbe8fe97
âœ… Token 77 minted successfully
ğŸ¨ Minting token 78 (000078)...
   TX: 0x7ff76c20820c5c2b9c5a3138694286af161fc5834b9eb1e856e652f19a16d18d
âœ… Token 78 minted successfully
ğŸ¨ Minting token 79 (000079)...
   TX: 0x1ce5b69bfcd1b6a230733ffd17b731496d6976309742b1a34b8605ed9871696f
âœ… Token 79 minted successfully
ğŸ¨ Minting token 80 (000080)...
   TX: 0x10a07d12a2a034a1c08f92c11ef5d254770d29646e6070d686c868a3472ea431
âœ… Token 80 minted successfully
ğŸ“Š Progress: 80/1000 (8.0%)
ğŸ¨ Minting token 81 (000081)...
   TX: 0x9b6ac540d51cf2c7fe4bfc9e0ea8993f1e9d907dac492c297a003b6d06023c73
âœ… Token 81 minted successfully
ğŸ¨ Minting token 82 (000082)...
   TX: 0x325b2c5480a938d9699faa2d10e296d1a18cd99a271243e9e91b00cbce5c92e8
âœ… Token 82 minted successfully
ğŸ¨ Minting token 83 (000083)...
   TX: 0x4d1cce48e2fd158ae2c01cf6d16a30776172d1cdae49ea96ac4b5c13efa20abe
âœ… Token 83 minted successfully
ğŸ¨ Minting token 84 (000084)...
   TX: 0x523eeb943fdff7b7e1ea622b0126f85e54e16ace9af53e7db0e28ba367bbb566
âœ… Token 84 minted successfully
ğŸ¨ Minting token 85 (000085)...
   TX: 0x04f796c6454501de55a6261c5aeab2a547b0af23cbceaafa961f61457757ffd1
âœ… Token 85 minted successfully
ğŸ¨ Minting token 86 (000086)...
   TX: 0x6cbd80656bdbca28784b0128f037cfc611a128455b6e5953da95f99328040636
âœ… Token 86 minted successfully
ğŸ¨ Minting token 87 (000087)...
   TX: 0x4b1aae4cbc475e2a9ddadc19e3620dc40f80622780e3135060dd25cc533c5e6a
âœ… Token 87 minted successfully
ğŸ¨ Minting token 88 (000088)...
   TX: 0x0e6e72d855ccdf37e02f80bfe151cce572b189510c09747709af05d08631620f
âœ… Token 88 minted successfully
ğŸ¨ Minting token 89 (000089)...
   TX: 0x364e62c5945a14e825b9dbb7f6618c0e564dcd6f2282fa33b70441551dd27bbf
âœ… Token 89 minted successfully
ğŸ¨ Minting token 90 (000090)...
   TX: 0x7c12f418858a9642938132106c69801165f4b2a8d1646866a238154600e942c4
âœ… Token 90 minted successfully
ğŸ“Š Progress: 90/1000 (9.0%)
ğŸ¨ Minting token 91 (000091)...
   TX: 0x31af757cd2442adf1a6286b02cd86c0353a77c42035b56d415d9c87d3a500229
âœ… Token 91 minted successfully
ğŸ¨ Minting token 92 (000092)...
   TX: 0xbf9e044e99e1a8cccad1ad9202cccbab0fb8b1f3177a7f406d7b96298e7bdcd5
âœ… Token 92 minted successfully
ğŸ¨ Minting token 93 (000093)...
   TX: 0x44c0290a95a61e63a833d650ec633c167b4b64f5ddb7a4a4dbbeb8a36f648aa4
âœ… Token 93 minted successfully
ğŸ¨ Minting token 94 (000094)...
   TX: 0xc49472c27b5de9c0b74deb77350a2a04318b8ba91fbe068f197023d71bc44212
âœ… Token 94 minted successfully
ğŸ¨ Minting token 95 (000095)...
   TX: 0xe5f321290974d600afe555386112398b9726007bc11c52137ff81a85df851cad
âœ… Token 95 minted successfully
ğŸ¨ Minting token 96 (000096)...
   TX: 0xce36821ee90f90582cf19a426e7751cad459b9d7f476fa03cb31a56899cf213c
âœ… Token 96 minted successfully
ğŸ¨ Minting token 97 (000097)...
   TX: 0x7574c73060ec4dc03d3d7d7526658bf2fc029292b95adb2bc6488d966a0849cf
âœ… Token 97 minted successfully
ğŸ¨ Minting token 98 (000098)...
   TX: 0x4f57f880608aaccd33a4f3c1f4268ab2057de4f7efd9e12f5940b11fc37bbeee
âœ… Token 98 minted successfully
ğŸ¨ Minting token 99 (000099)...
   TX: 0x521b5f1e2fd7c6c5e5930ec3698a2f30e9a1cc9990cdb6cfbfb6914e84e07867
âœ… Token 99 minted successfully
ğŸ¨ Minting token 100 (000100)...
   TX: 0x26d0b578948428688599149191207cd3e86edf75e5dd8bd6f5f563611eecb5dd
âœ… Token 100 minted successfully
ğŸ“Š Progress: 100/1000 (10.0%)
ğŸ¨ Minting token 101 (000101)...
   TX: 0x88df23801e843a609a8481812ee01d7781e85d7659d8cdbf64d3fd5ca5fde7d4
âœ… Token 101 minted successfully
ğŸ¨ Minting token 102 (000102)...
   TX: 0xc954d094dc797d93262c689c16257f8719d46103e0b02536d4ed50d1951829cd
âœ… Token 102 minted successfully
ğŸ¨ Minting token 103 (000103)...
   TX: 0x4a8b70087f88b5835c70b44c81bb2b80b63003b67714e8f23d3a3c82eddea58d
âœ… Token 103 minted successfully
ğŸ¨ Minting token 104 (000104)...
   TX: 0xc66f5890444482268d0da683b2b65853a1cafb73e4d9e86b737d8c7781cec8ab
âœ… Token 104 minted successfully
ğŸ¨ Minting token 105 (000105)...
   TX: 0x1127c82ae09c3bf715f7c115f9b7335d2b0f246854f1d099070d501550b48b35
âœ… Token 105 minted successfully
ğŸ¨ Minting token 106 (000106)...
   TX: 0x74085d35e562f478327398c0a4bde95049be68070cac6ada3d13f29d18bf5468
âœ… Token 106 minted successfully
ğŸ¨ Minting token 107 (000107)...
   TX: 0x1df509113f4dbd4ba73d335cc5d757efd84d76f74b053abb9f40dc5f48bc845e
âœ… Token 107 minted successfully
ğŸ¨ Minting token 108 (000108)...
   TX: 0xec4185ca44a649a17b3f552daaa3fd23f87e492bd6e2e24639ba0321112ca971
âœ… Token 108 minted successfully
ğŸ¨ Minting token 109 (000109)...
   TX: 0x149f9ec9388d884de6b06d7a22900c676b0416f799456d997fcec0f441d0f165
âœ… Token 109 minted successfully
ğŸ¨ Minting token 110 (000110)...
   TX: 0xd1e067e1218556ebfe4a363322ffd0e9eb36e5d6324f08730258a9dc008f9256
âœ… Token 110 minted successfully
ğŸ“Š Progress: 110/1000 (11.0%)
ğŸ¨ Minting token 111 (000111)...
   TX: 0x233bb5ab7371b7db490dd642d20f7de1d966a6de6e41c61f589e2090b69a8f05
âœ… Token 111 minted successfully
ğŸ¨ Minting token 112 (000112)...
   TX: 0x7d8a291a7bbdf148762e56bc12a43e48d990a0fb6bbe09b577289723e48283d6
âœ… Token 112 minted successfully
ğŸ¨ Minting token 113 (000113)...
   TX: 0x58965a16c904804ebbce140733d492e475ca14ca891ca35cc38900ab7f68ef0e
âœ… Token 113 minted successfully
ğŸ¨ Minting token 114 (000114)...
   TX: 0xbddb111660acef6d6d9bd39c691e9842852daf50dd19032e3f6205d75717f474
âœ… Token 114 minted successfully
ğŸ¨ Minting token 115 (000115)...
   TX: 0x5d36257a8db697e544b0a6b211632c7e59ca332753e3399a73c6d6749ac6bdae
âœ… Token 115 minted successfully
ğŸ¨ Minting token 116 (000116)...
   TX: 0xf0100927ae92a72e5ebb52dd028c7281b8b89e365630df860c92de88e102e8ae
âœ… Token 116 minted successfully
ğŸ¨ Minting token 117 (000117)...
   TX: 0x55d06622c7f23fcad929672a8bac060909f3ae4fb68dc54719e1b993c895d5fc
âœ… Token 117 minted successfully
ğŸ¨ Minting token 118 (000118)...
   TX: 0x23ab20607df7aa0a1a42ddafb3205aab46efd29206cd2b103340e7193963fa63
âœ… Token 118 minted successfully
ğŸ¨ Minting token 119 (000119)...
   TX: 0x1653a9c43be36c7cc63983bce0c8d38d341b4721954360cd37a71bb05beed07f
âœ… Token 119 minted successfully
ğŸ¨ Minting token 120 (000120)...
   TX: 0xc77a73b31bf55369ceb1e9de1e347ce9ee00560a48be8aa79fea8bf8557dbd71
âœ… Token 120 minted successfully
ğŸ“Š Progress: 120/1000 (12.0%)
ğŸ¨ Minting token 121 (000121)...
   TX: 0xbd16eaa1db054caf34a5cf5a0fe3c095b7c28b0617b8cf7d1683ca5ae483b46c
âœ… Token 121 minted successfully
ğŸ¨ Minting token 122 (000122)...
   TX: 0xb282bb27f70e3ff19263c5917007670f076f975e788f0ed1421272d07e194083
âœ… Token 122 minted successfully
ğŸ¨ Minting token 123 (000123)...
   TX: 0xd2b66ff1f387233d0fd70e6da1b5c93ce419b7ae191da6b9fbc6239d76fb5b69
âœ… Token 123 minted successfully
ğŸ¨ Minting token 124 (000124)...
   TX: 0x54dfb931922930afc2507a9a60b6faedd3bc45d49db5b44bb3115e1e2eeb01d5
âœ… Token 124 minted successfully
ğŸ¨ Minting token 125 (000125)...
   TX: 0x10a5b2cca45848d4a2c6fea803f0e32a8768389c2ae27dade619b6b5d5482856
âœ… Token 125 minted successfully
ğŸ¨ Minting token 126 (000126)...
   TX: 0x90849fdf6a15f6de569da007e406305e8cbcc10e47de24f9c9efbcf0cc056798
âœ… Token 126 minted successfully
ğŸ¨ Minting token 127 (000127)...
   TX: 0xc9fdeab19227ebdf6e64cc0eb799c41e8ab59a1a71de8917335055e1708b6dcf
âœ… Token 127 minted successfully
ğŸ¨ Minting token 128 (000128)...
   TX: 0x8370a5f597748e2ab7183ca46dfde936b267ed034acf5fc1bfd88728a3e1fbcd
âœ… Token 128 minted successfully
ğŸ¨ Minting token 129 (000129)...
   TX: 0x6452e58ed99d9826344e47405820b561574349b1e286bfaa3db78810dc355e6e
âœ… Token 129 minted successfully
ğŸ¨ Minting token 130 (000130)...
   TX: 0xa51713820c4cc0ca1ae003cf2a589739cf1aad1526f904d0f6dbcd242b63b9e4
âœ… Token 130 minted successfully
ğŸ“Š Progress: 130/1000 (13.0%)
ğŸ¨ Minting token 131 (000131)...
   TX: 0x25e7ed02b129d5d63aedf0549c94c8ea9bc63526a4483bc6018df847d07c6f3a
âœ… Token 131 minted successfully
ğŸ¨ Minting token 132 (000132)...
   TX: 0x2e90de8bd93a5c808939f2837036b6d55e8048058e9e74ec29186362451cb974
âœ… Token 132 minted successfully
ğŸ¨ Minting token 133 (000133)...
   TX: 0x1397ce65ee6f9ccb14ea39db777fb0f675e3b6aa1245698b2f93f89149965556
âœ… Token 133 minted successfully
ğŸ¨ Minting token 134 (000134)...
   TX: 0xf8f650fad99897d94fa789f3ebf5762df8ecb76f9f8d77cb82a95ddbf1159913
âœ… Token 134 minted successfully
ğŸ¨ Minting token 135 (000135)...
   TX: 0x35d69645b785c87d9e459983ee1c9cd12413186e442fe0d92343530088d0a92d
âœ… Token 135 minted successfully
ğŸ¨ Minting token 136 (000136)...
   TX: 0xfcda3f2beeb9ab3fd403aa5d497b8f6d964fae4b4ab5250c41f4f34fe60995f4
âœ… Token 136 minted successfully
ğŸ¨ Minting token 137 (000137)...
   TX: 0x69b39bd6cbce629337b095627cef43988ce7c36e0a453908ad5090998970fe79
âœ… Token 137 minted successfully
ğŸ¨ Minting token 138 (000138)...
   TX: 0xe54cff9a0101af03989bc51f5082573fd8b94a3aaf3247ce7823e38042e315bd
âœ… Token 138 minted successfully
ğŸ¨ Minting token 139 (000139)...
   TX: 0xdfa74d4e9a4bf0a8cdb69dbf3d09be8f14b7f4bf24fd5c8e235d1322c95ee1b3
âœ… Token 139 minted successfully
ğŸ¨ Minting token 140 (000140)...
   TX: 0x6b38851bf61d9cbdf73b0f099e38933bfdbf605e32b1dbc6de08ff1b749c4198
âœ… Token 140 minted successfully
ğŸ“Š Progress: 140/1000 (14.0%)
ğŸ¨ Minting token 141 (000141)...
   TX: 0x7250183cb07a76b2fcb65475483f4aa40b027ae1b4411a80c37dc178dff69991
âœ… Token 141 minted successfully
ğŸ¨ Minting token 142 (000142)...
   TX: 0x7b6f40f3aac0ab887e861c2d23c2a3c15e459b070435a13fa3e1b9d08be64f91
âœ… Token 142 minted successfully
ğŸ¨ Minting token 143 (000143)...
   TX: 0xcf6fd5e4a44745941c81e6790ba105677760edbdcd89085bbbcfb68bedc4940d
âœ… Token 143 minted successfully
ğŸ¨ Minting token 144 (000144)...
   TX: 0x22264e6d019ff942d097004f17202e3d2e67b7c113d3516d5515447afbbb000f
âœ… Token 144 minted successfully
ğŸ¨ Minting token 145 (000145)...
   TX: 0xb41e36f611a77ad1314788b8083edbc7b3b0f29d2f81e8d71cf79574449428de
âœ… Token 145 minted successfully
ğŸ¨ Minting token 146 (000146)...
   TX: 0x3a4911636060d5a2bcb1af7a64c5ff38bf498c631af4b19eb4e6fa4eb7432409
âœ… Token 146 minted successfully
ğŸ¨ Minting token 147 (000147)...
   TX: 0x10358499761af3d19744f7200c99cb14325fc0b099e71f5aa7a351fb40dc61aa
âœ… Token 147 minted successfully
ğŸ¨ Minting token 148 (000148)...
   TX: 0xa22e574161250697ae9063cba770651eef7934884893ee95258871e9611aa92b
âœ… Token 148 minted successfully
ğŸ¨ Minting token 149 (000149)...
   TX: 0x118fa1048bc73875b2fd925ef0f86d5f3e19f41a63d0ded3ea3e283ba14dbaca
âœ… Token 149 minted successfully
ğŸ¨ Minting token 150 (000150)...
   TX: 0xd5679e88bfe6b212e397e686386757395f7aac7b35614f4fdce0a75922e45157
âœ… Token 150 minted successfully
ğŸ“Š Progress: 150/1000 (15.0%)
ğŸ¨ Minting token 151 (000151)...
   TX: 0xf8060de70036a07b861bf1cdd218f9fc799dfb469effeadc5498817211f3ea47
âœ… Token 151 minted successfully
ğŸ¨ Minting token 152 (000152)...
   TX: 0x11db3a9c5b3387cee463557dcda1e8829ba271c6e61f940333d104d7baae9868
âœ… Token 152 minted successfully
ğŸ¨ Minting token 153 (000153)...
   TX: 0x886674cc01a7c78891defcff09bdf1218e9d19d3da348165959749d23dd214d7
âœ… Token 153 minted successfully
ğŸ¨ Minting token 154 (000154)...
   TX: 0xa93374baa36f3352177ac5c38d8e7b0334a27ab96e249e4aa27b7a9d51f6bca2
âœ… Token 154 minted successfully
ğŸ¨ Minting token 155 (000155)...
   TX: 0x10c9404d0c1a5e9fbd42b51e9bf7f0b1b60bf2afa4717bf607f8489631604f7e
âœ… Token 155 minted successfully
ğŸ¨ Minting token 156 (000156)...
   TX: 0xaadf9e6b89c16fc9cb2d987dbb4662cb9d9af4a37b9621b3ed23dd2486e3cba9
âœ… Token 156 minted successfully
ğŸ¨ Minting token 157 (000157)...
   TX: 0x65ac6cb4c1ed8ac2357c8258a2e6a7727b1674fdb9c3476944ac61a9ca7c0a2f
âœ… Token 157 minted successfully
ğŸ¨ Minting token 158 (000158)...
   TX: 0x11cf28996e2676d9f8390df61412c6c466f58fe2fb02f11d0d68151232bd6ce7
âœ… Token 158 minted successfully
ğŸ¨ Minting token 159 (000159)...
   TX: 0x5cae66c8b44fb1fcb7300905da2fae1c92e3dc53d92bb9078c0ab31f415b2457
âœ… Token 159 minted successfully
ğŸ¨ Minting token 160 (000160)...
   TX: 0x033e1eb0d198711dfd28d61011e02a9664d82e6aef5d5adb799bab93ff7121b2
âœ… Token 160 minted successfully
ğŸ“Š Progress: 160/1000 (16.0%)
ğŸ¨ Minting token 161 (000161)...
   TX: 0x0c38fdcfb0987e47df506e34f3855e4f906c3399dcfbea8b15ee53e0f83a1ff3
âœ… Token 161 minted successfully
ğŸ¨ Minting token 162 (000162)...
   TX: 0x725e16a010788a0374f96e71cd672491f9ce03d44cb4ad9a2d22c50f64d60146
âœ… Token 162 minted successfully
ğŸ¨ Minting token 163 (000163)...
   TX: 0x2984663b6adb6dd1e6f2015991cb75c6c6cdc85689b84b998d046daafa7525b9
âœ… Token 163 minted successfully
ğŸ¨ Minting token 164 (000164)...
   TX: 0x54c93c21e28e2610ead56f3b24213138dccddc6cf4de428f11147b3883de4fe6
âœ… Token 164 minted successfully
ğŸ¨ Minting token 165 (000165)...
   TX: 0xf9c0d72cc4e2631c4abe353bce82f070fec5d7acb256a59bd032b84e427974f3
âœ… Token 165 minted successfully
ğŸ¨ Minting token 166 (000166)...
   TX: 0x495bf03a7738e7de4e4e4704a977ca865f10bb6f7afbd1ceb65d6855f32ffe64
âœ… Token 166 minted successfully
ğŸ¨ Minting token 167 (000167)...
   TX: 0x72699cfe0b8b353bfc925c5b21c4825cb158366428531f21320f371b1afae64e
âœ… Token 167 minted successfully
ğŸ¨ Minting token 168 (000168)...
   TX: 0xfd714b5824ac4c7a11b8f4bd10f87e06bd22f31193fb42969c4b22e0685f38bb
âœ… Token 168 minted successfully
ğŸ¨ Minting token 169 (000169)...
   TX: 0x2a725e61ede15057f64f6d47a33afb2baa8445218084917621a3ecfb3e1bdd29
âœ… Token 169 minted successfully
ğŸ¨ Minting token 170 (000170)...
   TX: 0xf6af96f6b9a5c42fe48f28b8ff8125f888bb8d170cca6f8eb11e76b878b61728
âœ… Token 170 minted successfully
ğŸ“Š Progress: 170/1000 (17.0%)
ğŸ¨ Minting token 171 (000171)...
   TX: 0x0956e73f268866086439a406761fc8f34311bf86d8869e03a15f9997ae1ce211
âœ… Token 171 minted successfully
ğŸ¨ Minting token 172 (000172)...
   TX: 0x055463122401f343e874a274797b903c3e40ec7f7ff6a0f73bc68b49c6e9c96f
âœ… Token 172 minted successfully
ğŸ¨ Minting token 173 (000173)...
   TX: 0xf15fb9adf5d866310685d419a92a6e2cb4cbf25131c8cfecfb97eb8f68ec005f
âœ… Token 173 minted successfully
ğŸ¨ Minting token 174 (000174)...
   TX: 0x1e209f3b91f1d52cb9345612b26c2d40c58a26854116bd8d3d35cf217f39aea5
âœ… Token 174 minted successfully
ğŸ¨ Minting token 175 (000175)...
   TX: 0x716dfcd6ad34abf9bd60e3ff620e0a528bdff3aaa51d351088a92b88a61c689a
âœ… Token 175 minted successfully
ğŸ¨ Minting token 176 (000176)...
   TX: 0x618f9dc7a10ccd70cdfd604fddfc683bfd9bb11d2915a97b4448936b9efacada
âœ… Token 176 minted successfully
ğŸ¨ Minting token 177 (000177)...
   TX: 0x2b856daf50b599e67e77c854347e791aed2ddbefd9a5f3d0887ac9c8e94e0e1a
âœ… Token 177 minted successfully
ğŸ¨ Minting token 178 (000178)...
   TX: 0x47c17f35a4bcfe0ca111a7e80ee568ec854f7387741f221ec8b54085211a4828
âœ… Token 178 minted successfully
ğŸ¨ Minting token 179 (000179)...
   TX: 0xc611244eb4865bbe7974def5bb6fc640868aa70270d477901a9e5a87196e26da
âœ… Token 179 minted successfully
ğŸ¨ Minting token 180 (000180)...
   TX: 0xf5b8456e16129ac125795fcdb0680c0f11d7faf8af1549e725e9c03d13771bba
âœ… Token 180 minted successfully
ğŸ“Š Progress: 180/1000 (18.0%)
ğŸ¨ Minting token 181 (000181)...
   TX: 0x16941c078ea0943aa026a21cba1be41ee8ee33edccf810a8867fd8c8ede36df3
âœ… Token 181 minted successfully
ğŸ¨ Minting token 182 (000182)...
   TX: 0xfd06b55503c9b64c00b96aac4362b8e3c8a7b59be69dd8a8a8f1848045d344e4
âœ… Token 182 minted successfully
ğŸ¨ Minting token 183 (000183)...
   TX: 0x8796fce3203b67ff7fe517637f2f1e505a5fa2c7627e51d424f863f183e549d5
âœ… Token 183 minted successfully
ğŸ¨ Minting token 184 (000184)...
   TX: 0x84d64b48195e1dacb5ec8a0b31cf3fc9b5fa3294f5565ca898a1e8a3c12ed9e0
âœ… Token 184 minted successfully
ğŸ¨ Minting token 185 (000185)...
   TX: 0x566a95c0d89ca20a57f9a4f00a952fce437a8342db11d0bd08039ae3c3fd97b0
âœ… Token 185 minted successfully
ğŸ¨ Minting token 186 (000186)...
   TX: 0x69b7002dedd66e038af962a7bc48af7648ae06f28860047416dd014ec63d2504
âœ… Token 186 minted successfully
ğŸ¨ Minting token 187 (000187)...
   TX: 0x996d9b2f0bd6a664171b58b444ce86d051379f22b194ec67d5b3ea098b560344
âœ… Token 187 minted successfully
ğŸ¨ Minting token 188 (000188)...
   TX: 0x65e2c5fd1f0bf05822a9a409399441d3f309d018e007cfd8990eb737f6ff08f4
âœ… Token 188 minted successfully
ğŸ¨ Minting token 189 (000189)...
   TX: 0xb26305747fc335f53fdaa00cd19657f1e03c168296ef03db50e53e54fa1e92e9
âœ… Token 189 minted successfully
ğŸ¨ Minting token 190 (000190)...
   TX: 0x9a5f3521c9aa684e7025796e21ffedf62d08d66935d2dad04b10831728a17b3e
âœ… Token 190 minted successfully
ğŸ“Š Progress: 190/1000 (19.0%)
ğŸ¨ Minting token 191 (000191)...
   TX: 0x6010be5fae313b715db167d9a8082362fac4b077508d41ab9ff6bc38a8806d18
âœ… Token 191 minted successfully
ğŸ¨ Minting token 192 (000192)...
   TX: 0xf46debb8c1394ee4d277d4a48ea89986d4a709b85c3f37518aed0b985b7c8ebc
âœ… Token 192 minted successfully
ğŸ¨ Minting token 193 (000193)...
   TX: 0x20c9bc93bdf888c0891c1e56a2f3b9db5213ed75d241ed44526be9e901f4229b
âœ… Token 193 minted successfully
ğŸ¨ Minting token 194 (000194)...
   TX: 0xcbbb62183ee8c63a153b9dc141895a3e1a0f62286a16199a8b93c2adf113efdf
âœ… Token 194 minted successfully
ğŸ¨ Minting token 195 (000195)...
   TX: 0x2485f1e38ca4e0269bf26164cd7f9c63a92033e28ae01a13ccd7905e7f33aa04
âœ… Token 195 minted successfully
ğŸ¨ Minting token 196 (000196)...
   TX: 0x33c7bd848b6b840c59f728533c359813aa24c844733ddad4fa331482eea8fb7d
âœ… Token 196 minted successfully
ğŸ¨ Minting token 197 (000197)...
   TX: 0x10add5015d4f6ee6ce84210d2e1d315962b9f9691366339a8b24c23f54d491c0
âœ… Token 197 minted successfully
ğŸ¨ Minting token 198 (000198)...
   TX: 0x213a316c5b55f7408af3fd82f7be17795c00a1d051c0d55317870877488f0312
âœ… Token 198 minted successfully
ğŸ¨ Minting token 199 (000199)...
   TX: 0xb8b99ca39761ecb47a7845dd0b52d91899685bcd1fa241872bb77c6da5cfb588
âœ… Token 199 minted successfully
ğŸ¨ Minting token 200 (000200)...
   TX: 0x7a0c3ed7b41ad35e69cc5414bfd395bcd1d38511950922bb36b64d2c73ccddf1
âœ… Token 200 minted successfully
ğŸ“Š Progress: 200/1000 (20.0%)
ğŸ¨ Minting token 201 (000201)...
   TX: 0xd00b6bc96d76d38a68d44dd44a88ef0e0f563e3d9c83b77c2bf33a48f4e204f5
âœ… Token 201 minted successfully
ğŸ¨ Minting token 202 (000202)...
   TX: 0x92e7cf9363427738c16aa719d95b4020e3ba6f4c74a118323bdb048d4e359a54
âœ… Token 202 minted successfully
ğŸ¨ Minting token 203 (000203)...
   TX: 0x4e77c05288d3388b4e8b2b64603a2fc7f1a213472a9aa8a6dc253b4cbb244196
âœ… Token 203 minted successfully
ğŸ¨ Minting token 204 (000204)...
   TX: 0x6e3e9a466dc2e7af3e7937eb2e8e6d613cc2bc9e104c0db2a860bde381ba1946
âœ… Token 204 minted successfully
ğŸ¨ Minting token 205 (000205)...
   TX: 0x7fee20b2486577f5e95ade34e6ae3eb66ee1052c92d194939d1367430006b269
âœ… Token 205 minted successfully
ğŸ¨ Minting token 206 (000206)...
   TX: 0x05000901b1badb1c329d6f5aeafed1afb636c95b11a4d0b8d186e79c4594a6c2
âœ… Token 206 minted successfully
ğŸ¨ Minting token 207 (000207)...
   TX: 0xf35c5ab2c4ac0949a484ef25fdd28891f34fc9f09c8db6bbaccd78ad30ed25ae
âœ… Token 207 minted successfully
ğŸ¨ Minting token 208 (000208)...
   TX: 0xd22feb0caafd75dc48d625b4de41db96bda7225041e175366fefccb2513f016d
âœ… Token 208 minted successfully
ğŸ¨ Minting token 209 (000209)...
   TX: 0xaaaabf025f39b4b9a5b0fa3c288f05d98ac18c4fe9c1e0a0c58ed68c7b56333b
âœ… Token 209 minted successfully
ğŸ¨ Minting token 210 (000210)...
   TX: 0xd6802d0b1aa5edad511adfad92cecf9079c5ea5195758914c8630af79d8884aa
âœ… Token 210 minted successfully
ğŸ“Š Progress: 210/1000 (21.0%)
ğŸ¨ Minting token 211 (000211)...
   TX: 0xb89aed27c978e992b00978e0cbcb515379f498e9344f76d9b5fc4832238ab7dd
